Circuit: * C:\Users\maxwe\Desktop\SPRING 2021 Documents\Engineering Design\GitHub\CMOS-Differential-Pair\final_differential_pair.asc

Warning: toxe, toxp and dtox all given and toxe != toxp + dtox; dtox ignored.
Direct Newton iteration for .op point succeeded.
Semiconductor Device Operating Points:
                        --- BSIM4 MOSFETS ---
Name:     m§t4        m§t3         m3          m4         m§tb1
Model:    cmosp       cmosp       cmosp       cmosp       cmosn
Id:     -1.25e-03   -1.18e-03   -8.47e-04   -8.46e-04    7.81e-05
Vgs:    -1.00e+00   -1.00e+00   -8.54e-01   -8.54e-01    3.12e-01
Vds:    -1.00e+00   -6.24e-01   -8.54e-01   -8.45e-01    3.12e-01
Vbs:     0.00e+00    0.00e+00    0.00e+00    0.00e+00    0.00e+00
Vth:    -3.08e-01   -3.13e-01   -3.10e-01   -3.10e-01    3.57e-01
Vdsat:  -5.81e-01   -5.78e-01   -4.71e-01   -4.71e-01    5.12e-02
Gm:      2.70e-03    2.43e-03    2.43e-03    2.43e-03    1.50e-03
Gds:     1.33e-04    3.41e-04    1.04e-04    1.05e-04    1.20e-04
Gmb      6.31e-04    5.85e-04    5.58e-04    5.58e-04    3.48e-04
Cbd:     1.24e-09    1.37e-09    1.29e-09    1.29e-09    1.36e-09
Cbs:     1.75e-09    1.75e-09    1.75e-09    1.75e-09    1.56e-09

Name:     m§t5        m§t2        m§t1         m6          m5
Model:    cmosn       cmosn       cmosn       cmosn       cmosn
Id:      9.65e-04    1.25e-03    1.18e-03    7.81e-05    9.63e-04
Vgs:     3.12e-01    5.34e-01    5.10e-01    3.12e-01    3.12e-01
Vds:     6.60e-02    1.31e-01    5.10e-01    3.12e-01    6.55e-02
Vbs:     0.00e+00   -6.60e-02   -6.60e-02    0.00e+00    0.00e+00
Vth:     3.74e-01    3.91e-01    3.87e-01    3.57e-01    3.74e-01
Vdsat:   4.85e-02    1.36e-01    1.26e-01    5.12e-02    4.85e-02
Gm:      1.90e-02    1.03e-02    1.20e-02    1.50e-03    1.90e-02
Gds:     4.56e-03    3.10e-03    2.30e-04    1.20e-04    4.61e-03
Gmb      4.43e-03    2.40e-03    2.76e-03    3.48e-04    4.42e-03
Cbd:     3.02e-08    3.71e-09    3.24e-09    1.36e-09    3.02e-08
Cbs:     3.11e-08    3.95e-03    3.95e-03    1.56e-09    3.11e-08

Name:      m1          m2
Model:    cmosn       cmosn
Id:      8.47e-04    8.46e-04
Vgs:     4.84e-01    4.84e-01
Vds:     2.81e-01    2.90e-01
Vbs:    -6.55e-02   -6.55e-02
Vth:     3.89e-01    3.89e-01
Vdsat:   1.11e-01    1.11e-01
Gm:      9.95e-03    9.95e-03
Gds:     2.50e-04    2.42e-04
Gmb      2.27e-03    2.26e-03
Cbd:     3.50e-09    3.49e-09
Cbs:     3.95e-03    3.94e-09



Date: Fri May 07 17:55:39 2021
Total elapsed time: 0.071 seconds.

tnom = 27
temp = 27
method = trap
totiter = 11
traniter = 0
tranpoints = 0
accept = 0
rejected = 0
matrix size = 70
fillins = 0
solver = Normal
Matrix Compiler1:     424 opcodes
Matrix Compiler2: 7.64 KB object code size
