Circuit: * C:\Users\scott\Documents\OneDrive - Gonzaga University\Junior year\Second Semester\Engineering Design\CMOS-Differential-Pair\test1.asc

Warning: toxe, toxp and dtox all given and toxe != toxp + dtox; dtox ignored.
Direct Newton iteration for .op point succeeded.
Semiconductor Device Operating Points:
                        --- BSIM4 MOSFETS ---
Name:     m§t3        m§t4         m4          m3         m§t1
Model:    cmosp       cmosp       cmosn       cmosn       cmosn
Id:     -7.66e-04   -7.66e-04    1.27e-04    1.53e-03    7.66e-04
Vgs:    -7.08e-01   -7.08e-01    1.17e+00    1.17e+00    4.28e-01
Vds:    -7.08e-01   -7.08e-01    1.17e+00    1.72e-01    3.20e-01
Vbs:     0.00e+00    0.00e+00    0.00e+00    0.00e+00   -1.72e-01
Vth:    -2.63e-01   -2.63e-01    3.65e-01    3.66e-01    3.93e-01
Vdsat:  -3.62e-01   -3.62e-01    4.42e-01    3.67e-01    7.32e-02
Gm:      2.51e-03    2.51e-03    1.85e-04    8.74e-04    1.10e-02
Gds:     3.57e-04    3.57e-04    7.95e-06    6.86e-03    9.15e-04
Gmb      5.75e-04    5.75e-04    5.15e-05    3.07e-04    2.35e-03
Cbd:     4.97e-09    4.97e-09    2.49e-11    5.33e-10    3.33e-09
Cbs:     6.50e-09    6.50e-09    3.66e-11    5.77e-10    3.75e-09

Name:     m§t2
Model:    cmosn
Id:      7.66e-04
Vgs:     4.28e-01
Vds:     3.20e-01
Vbs:    -1.72e-01
Vth:     3.93e-01
Vdsat:   7.32e-02
Gm:      1.10e-02
Gds:     9.15e-04
Gmb      2.35e-03
Cbd:     3.33e-09
Cbs:     3.75e-09



Date: Wed Apr 28 20:04:08 2021
Total elapsed time: 0.065 seconds.

tnom = 27
temp = 27
method = trap
totiter = 7
traniter = 0
tranpoints = 0
accept = 0
rejected = 0
matrix size = 36
fillins = 0
solver = Normal
Matrix Compiler1: 3.89 KB object code size
Matrix Compiler2: 4.08 KB object code size
